Time [s],Packet ID,MOSI,MISO
0,0,1,0
0.0000051,0,2001,0
0.0000103,0,3501,0
0.0000154,0,5001,0
0.0000206,0,6501,0
0.0000258,0,8001,0
0.0000309,0,9501,0
0.0000361,0,11001,0
0.0000412,0,12501,0
0.0000464,0,14001,0
0.0000516,0,15501,0
0.0000567,0,17001,0
0.0000619,0,18501,0
0.0000671,0,20001,0
0.0000722,0,21501,0
0.0000774,0,23001,0
0.0000825,0,24501,0
0.0000877,0,26001,0
0.0000928,0,27501,0
0.000098,0,29001,0
0.0001032,0,30501,0
0.0001083,0,32001,0
0.0001135,0,32766,0
0.0001187,0,32767,0
